T2B90 751:599 SEGGER J-Link V6.44a Log File (0000ms, 4791ms total)
T2B90 751:599 DLL Compiled: Mar  8 2019 17:31:48 (0000ms, 4791ms total)
T2B90 751:599 Logging started @ 2019-08-14 15:36 (0000ms, 4791ms total)
T2B90 751:599 JLINK_SetWarnOutHandler(...) (0000ms, 4791ms total)
T2B90 751:599 JLINK_OpenEx(...)
Firmware: J-Link ARM V8 compiled Nov 28 2014 13:44:46
Hardware: V8.00
S/N: 17935099
Feature(s): RDI,FlashDL,FlashBP,JFlash
TELNET listener socket opened on port 19021WEBSRV 
Starting webserver (0016ms, 4807ms total)
T2B90 751:599 WEBSRV Webserver running on local port 19080 (0016ms, 4807ms total)
T2B90 751:599   returns O.K. (0016ms, 4807ms total)
T2B90 751:615 JLINK_GetEmuCaps()  returns 0xB9FF7BBF (0000ms, 4807ms total)
T2B90 751:616 JLINK_TIF_GetAvailable(...) (0000ms, 4807ms total)
T2B90 751:617 JLINK_SetErrorOutHandler(...) (0000ms, 4808ms total)
T2B90 751:617 JLINK_ExecCommand("ProjectFile = "C:\Users\ngoqu\Documents\GitHub\SemPost - Copy\USER\JLinkSettings.ini"", ...).   returns 0x00 (0001ms, 4809ms total)
T2B90 751:624 JLINK_ExecCommand("Device = STM32F103C8", ...). Device "STM32F103C8" selected.  returns 0x00 (0005ms, 4814ms total)
T2B90 751:629 JLINK_ExecCommand("DisableConnectionTimeout", ...).   returns 0x01 (0000ms, 4814ms total)
T2B90 751:629 JLINK_GetHardwareVersion()  returns 0x13880 (0000ms, 4814ms total)
T2B90 751:629 JLINK_GetDLLVersion()  returns 64401 (0000ms, 4814ms total)
T2B90 751:629 JLINK_GetFirmwareString(...) (0000ms, 4814ms total)
T2B90 751:641 JLINK_GetDLLVersion()  returns 64401 (0000ms, 4814ms total)
T2B90 751:641 JLINK_GetCompileDateTime() (0000ms, 4814ms total)
T2B90 751:643 JLINK_GetFirmwareString(...) (0000ms, 4814ms total)
T2B90 751:645 JLINK_GetHardwareVersion()  returns 0x13880 (0000ms, 4814ms total)
T2B90 751:655 JLINK_TIF_Select(JLINKARM_TIF_SWD)  returns 0x00 (0003ms, 4817ms total)
T2B90 751:658 JLINK_SetSpeed(5000) (0000ms, 4817ms total)
T2B90 751:659 JLINK_GetId() >0x10B TIF>Found SW-DP with ID 0x1BA01477 >0x0D TIF> >0x28 TIF> >0x0D TIF> >0x28 TIF> >0x0D TIF> >0x28 TIF> >0x0D TIF> >0x28 TIF> >0x0D TIF> >0x21 TIF> >0x0D TIF> >0x28 TIF> >0x0D TIF> >0x28 TIF> >0x0D TIF> >0x28 TIF> >0x0D TIF> >0x21 TIF> >0x0D TIF> >0x21 TIF> >0x0D TIF> >0x28 TIF> >0x0D TIF> >0x21 TIF> >0x0D TIF> >0x21 TIF> >0x0D TIF> >0x28 TIF> >0x0D TIF> >0x21 TIF> >0x0D TIF> >0x21 TIF> >0x0D TIF> >0x28 TIF> >0x0D TIF> >0x21 TIF> >0x0D TIF> >0x21 TIF> >0x0D TIF> >0x28 TIF>
 >0x0D TIF> >0x21 TIF> >0x0D TIF> >0x21 TIF> >0x0D TIF> >0x28 TIF> >0x0D TIF> >0x21 TIF> >0x0D TIF> >0x21 TIF> >0x0D TIF> >0x28 TIF> >0x0D TIF> >0x21 TIF> >0x0D TIF> >0x21 TIF> >0x10B TIF>Found SW-DP with ID 0x1BA01477 >0x0D TIF> >0x28 TIF> >0x0D TIF> >0x28 TIF> >0x0D TIF> >0x28 TIF> >0x0D TIF> >0x28 TIF> >0x0D TIF> >0x21 TIF> >0x0D TIF> >0x28 TIF>Scanning AP map to find all available APs >0x0D TIF> >0x28 TIF> >0x0D TIF> >0x21 TIF> >0x0D TIF> >0x21 TIF> >0x0D TIF> >0x28 TIF> >0x0D TIF> >0x21 TIF>
 >0x0D TIF> >0x21 TIF>AP[1]: Stopped AP scan as end of AP map has been reachedAP[0]: AHB-AP (IDR: 0x14770011)Iterating through AP map to find AHB-AP to use >0x42 TIF> >0x28 TIF> >0x0D TIF> >0x28 TIF> >0x0D TIF> >0x21 TIF> >0x0D TIF> >0x21 TIF> >0x42 TIF> >0x28 TIF> >0x0D TIF> >0x28 TIF> >0x0D TIF> >0x28 TIF> >0x0D TIF> >0x21 TIF> >0x0D TIF> >0x21 TIF>AP[0]: Core foundAP[0]: AHB-AP ROM base: 0xE00FF000 >0x0D TIF> >0x28 TIF> >0x0D TIF> >0x28 TIF> >0x0D TIF> >0x28 TIF> >0x0D TIF> >0x21 TIF> >0x0D TIF>
 >0x21 TIF>CPUID register: 0x411FC231. Implementer code: 0x41 (ARM)Found Cortex-M3 r1p1, Little endian. -- Max. mem block: 0x00002408 -- CPU_ReadMem(4 bytes @ 0xE000EDF0) -- CPU_WriteMem(4 bytes @ 0xE000EDF0) -- CPU_ReadMem(4 bytes @ 0xE0002000)FPUnit: 6 code (BP) slots and 2 literal slots -- CPU_ReadMem(4 bytes @ 0xE000EDFC) -- CPU_WriteMem(4 bytes @ 0xE000EDFC) -- CPU_ReadMem(4 bytes @ 0xE0001000) -- CPU_WriteMem(4 bytes @ 0xE0001000) -- CPU_ReadMem(4 bytes @ 0xE000ED88)
 -- CPU_WriteMem(4 bytes @ 0xE000ED88) -- CPU_ReadMem(4 bytes @ 0xE000ED88) -- CPU_WriteMem(4 bytes @ 0xE000ED88)CoreSight components:ROMTbl[0] @ E00FF000 -- CPU_ReadMem(16 bytes @ 0xE00FF000) -- CPU_ReadMem(16 bytes @ 0xE000EFF0) -- CPU_ReadMem(16 bytes @ 0xE000EFE0)ROMTbl[0][0]: E000E000, CID: B105E00D, PID: 001BB000 SCS -- CPU_ReadMem(16 bytes @ 0xE0001FF0) -- CPU_ReadMem(16 bytes @ 0xE0001FE0)ROMTbl[0][1]: E0001000, CID: B105E00D, PID: 001BB002 DWT -- CPU_ReadMem(16 bytes @ 0xE0002FF0)
 -- CPU_ReadMem(16 bytes @ 0xE0002FE0)ROMTbl[0][2]: E0002000, CID: B105E00D, PID: 000BB003 FPB -- CPU_ReadMem(16 bytes @ 0xE0000FF0) -- CPU_ReadMem(16 bytes @ 0xE0000FE0)ROMTbl[0][3]: E0000000, CID: B105E00D, PID: 001BB001 ITM -- CPU_ReadMem(16 bytes @ 0xE00FF010) -- CPU_ReadMem(16 bytes @ 0xE0040FF0) -- CPU_ReadMem(16 bytes @ 0xE0040FE0)ROMTbl[0][4]: E0040000, CID: B105900D, PID: 001BB923 TPIU-Lite >0x0D TIF> >0x21 TIF>  returns 0x1BA01477 (0247ms, 5065ms total)
T2B90 751:906 JLINK_GetDLLVersion()  returns 64401 (0000ms, 5065ms total)
T2B90 751:906 JLINK_CORE_GetFound()  returns 0x30000FF (0000ms, 5065ms total)
T2B90 751:906 JLINK_GetDebugInfo(0x100 = JLINKARM_ROM_TABLE_ADDR_INDEX) -- Value=0xE00FF000  returns 0x00 (0000ms, 5065ms total)
T2B90 751:909 JLINK_GetDebugInfo(0x100 = JLINKARM_ROM_TABLE_ADDR_INDEX) -- Value=0xE00FF000  returns 0x00 (0000ms, 5065ms total)
T2B90 751:909 JLINK_GetDebugInfo(0x101 = JLINKARM_DEBUG_INFO_ETM_ADDR_INDEX) -- Value=0x00000000  returns 0x00 (0000ms, 5065ms total)
T2B90 751:909 JLINK_ReadMemEx(0xE0041FF0, 0x0010 Bytes, ..., Flags = 0x02000004) -- CPU_ReadMem(16 bytes @ 0xE0041FF0) - Data: 00 00 00 00 00 00 00 00 00 00 00 00 00 00 00 00  returns 0x10 (0000ms, 5065ms total)
T2B90 751:909 JLINK_GetDebugInfo(0x102 = JLINKARM_DEBUG_INFO_MTB_ADDR_INDEX) -- Value=0x00000000  returns 0x00 (0000ms, 5065ms total)
T2B90 751:909 JLINK_GetDebugInfo(0x103 = JLINKARM_DEBUG_INFO_TPIU_ADDR_INDEX) -- Value=0xE0040000  returns 0x00 (0000ms, 5065ms total)
T2B90 751:909 JLINK_GetDebugInfo(0x104 = JLINKARM_DEBUG_INFO_ITM_ADDR_INDEX) -- Value=0xE0000000  returns 0x00 (0000ms, 5065ms total)
T2B90 751:909 JLINK_GetDebugInfo(0x105 = JLINKARM_DEBUG_INFO_DWT_ADDR_INDEX) -- Value=0xE0001000  returns 0x00 (0001ms, 5066ms total)
T2B90 751:910 JLINK_GetDebugInfo(0x106 = JLINKARM_DEBUG_INFO_FPB_ADDR_INDEX) -- Value=0xE0002000  returns 0x00 (0000ms, 5066ms total)
T2B90 751:910 JLINK_GetDebugInfo(0x107 = JLINKARM_DEBUG_INFO_NVIC_ADDR_INDEX) -- Value=0xE000E000  returns 0x00 (0000ms, 5066ms total)
T2B90 751:910 JLINK_GetDebugInfo(0x10C = JLINKARM_DEBUG_INFO_DBG_ADDR_INDEX) -- Value=0xE000EDF0  returns 0x00 (0000ms, 5066ms total)
T2B90 751:910 JLINK_GetDebugInfo(0x01 = Unknown) -- Value=0x00000000  returns 0x00 (0000ms, 5066ms total)
T2B90 751:910 JLINK_ReadMemU32(0xE000ED00, 0x0001 Items, ...) -- CPU_ReadMem(4 bytes @ 0xE000ED00) - Data: 31 C2 1F 41  returns 1 (0000ms, 5066ms total)
T2B90 751:910 JLINK_GetDebugInfo(0x10F = JLINKARM_DEBUG_INFO_HAS_CORTEX_M_SECURITY_EXT_INDEX) -- Value=0x00000000  returns 0x00 (0000ms, 5066ms total)
T2B90 751:910 JLINK_SetResetType(JLINKARM_CM3_RESET_TYPE_NORMAL)  returns JLINKARM_CM3_RESET_TYPE_NORMAL (0000ms, 5066ms total)
T2B90 751:910 JLINK_Reset() -- CPU is running -- CPU_WriteMem(4 bytes @ 0xE000EDF0) -- CPU is running -- CPU_WriteMem(4 bytes @ 0xE000EDFC)Reset: Halt core after reset via DEMCR.VC_CORERESET. >0x35 TIF>Reset: Reset device via AIRCR.SYSRESETREQ. -- CPU is running -- CPU_WriteMem(4 bytes @ 0xE000ED0C) >0x0D TIF> >0x28 TIF> -- CPU_ReadMem(4 bytes @ 0xE000EDF0) -- CPU_ReadMem(4 bytes @ 0xE000EDF0) -- CPU is running -- CPU_WriteMem(4 bytes @ 0xE000EDF0) -- CPU is running -- CPU_WriteMem(4 bytes @ 0xE000EDFC)
 -- CPU_ReadMem(4 bytes @ 0xE000EDF0) -- CPU_WriteMem(4 bytes @ 0xE0002000) -- CPU_ReadMem(4 bytes @ 0xE000EDFC) -- CPU_ReadMem(4 bytes @ 0xE0001000) (0081ms, 5147ms total)
T2B90 751:991 JLINK_Halt()  returns 0x00 (0000ms, 5147ms total)
T2B90 751:991 JLINK_ReadMemU32(0xE000EDF0, 0x0001 Items, ...) -- CPU_ReadMem(4 bytes @ 0xE000EDF0) - Data: 03 00 03 00  returns 1 (0001ms, 5148ms total)
T2B90 751:992 JLINK_WriteU32(0xE000EDF0, 0xA05F0003) -- CPU_WriteMem(4 bytes @ 0xE000EDF0)  returns 0 (0001ms, 5149ms total)
T2B90 751:993 JLINK_WriteU32(0xE000EDFC, 0x01000000) -- CPU_WriteMem(4 bytes @ 0xE000EDFC)  returns 0 (0001ms, 5150ms total)
T2B90 752:011 JLINK_GetHWStatus(...)  returns 0x00 (0000ms, 5150ms total)
T2B90 752:020 JLINK_GetNumBPUnits(Type = 0xFFFFFF00)  returns 0x06 (0000ms, 5150ms total)
T2B90 752:020 JLINK_GetNumBPUnits(Type = 0xF0)  returns 0x2000 (0000ms, 5150ms total)
T2B90 752:020 JLINK_GetNumWPUnits()  returns 0x04 (0000ms, 5150ms total)
T2B90 752:027 JLINK_GetSpeed()  returns 0xFA0 (0000ms, 5150ms total)
T2B90 752:030 JLINK_ReadMemU32(0xE000E004, 0x0001 Items, ...) -- CPU_ReadMem(4 bytes @ 0xE000E004) - Data: 01 00 00 00  returns 1 (0002ms, 5152ms total)
T2B90 752:032 JLINK_ReadMemU32(0xE000E004, 0x0001 Items, ...) -- CPU_ReadMem(4 bytes @ 0xE000E004) - Data: 01 00 00 00  returns 1 (0001ms, 5153ms total)
T2B90 752:033 JLINK_WriteMemEx(0xE0001000, 0x001C Bytes, ..., Flags = 0x02000004) - Data: 01 00 00 00 00 00 00 00 00 00 00 00 00 00 00 00 ... -- CPU_WriteMem(28 bytes @ 0xE0001000)  returns 0x1C (0001ms, 5154ms total)
T2B90 752:034 JLINK_Halt()  returns 0x00 (0000ms, 5154ms total)
T2B90 752:034 JLINK_IsHalted()  returns TRUE (0000ms, 5154ms total)
T2B90 752:037 JLINK_WriteMem(0x20000000, 0x0164 Bytes, ...) - Data: 00 BE 0A E0 0D 78 2D 06 68 40 08 24 40 00 00 D3 ... -- CPU_WriteMem(356 bytes @ 0x20000000)  returns 0x164 (0004ms, 5158ms total)
T2B90 752:041 JLINK_WriteReg(R0, 0x08000000)  returns 0x00 (0000ms, 5158ms total)
T2B90 752:041 JLINK_WriteReg(R1, 0x00B71B00)  returns 0x00 (0000ms, 5158ms total)
T2B90 752:041 JLINK_WriteReg(R2, 0x00000001)  returns 0x00 (0000ms, 5158ms total)
T2B90 752:041 JLINK_WriteReg(R3, 0x00000000)  returns 0x00 (0000ms, 5158ms total)
T2B90 752:041 JLINK_WriteReg(R4, 0x00000000)  returns 0x00 (0000ms, 5158ms total)
T2B90 752:041 JLINK_WriteReg(R5, 0x00000000)  returns 0x00 (0000ms, 5158ms total)
T2B90 752:041 JLINK_WriteReg(R6, 0x00000000)  returns 0x00 (0000ms, 5158ms total)
T2B90 752:041 JLINK_WriteReg(R7, 0x00000000)  returns 0x00 (0000ms, 5158ms total)
T2B90 752:041 JLINK_WriteReg(R8, 0x00000000)  returns 0x00 (0000ms, 5158ms total)
T2B90 752:041 JLINK_WriteReg(R9, 0x20000160)  returns 0x00 (0000ms, 5158ms total)
T2B90 752:041 JLINK_WriteReg(R10, 0x00000000)  returns 0x00 (0000ms, 5158ms total)
T2B90 752:041 JLINK_WriteReg(R11, 0x00000000)  returns 0x00 (0000ms, 5158ms total)
T2B90 752:041 JLINK_WriteReg(R12, 0x00000000)  returns 0x00 (0000ms, 5158ms total)
T2B90 752:041 JLINK_WriteReg(R13 (SP), 0x20001000)  returns 0x00 (0000ms, 5158ms total)
T2B90 752:041 JLINK_WriteReg(R14, 0x20000001)  returns 0x00 (0000ms, 5158ms total)
T2B90 752:041 JLINK_WriteReg(R15 (PC), 0x20000038)  returns 0x00 (0000ms, 5158ms total)
T2B90 752:041 JLINK_WriteReg(XPSR, 0x01000000)  returns 0x00 (0000ms, 5158ms total)
T2B90 752:041 JLINK_WriteReg(MSP, 0x20001000)  returns 0x00 (0000ms, 5158ms total)
T2B90 752:041 JLINK_WriteReg(PSP, 0x20001000)  returns 0x00 (0000ms, 5158ms total)
T2B90 752:041 JLINK_WriteReg(CFBP, 0x00000000)  returns 0x00 (0000ms, 5158ms total)
T2B90 752:041 JLINK_SetBPEx(Addr = 0x20000000, Type = 0xFFFFFFF2) -- CPU_ReadMem(2 bytes @ 0x20000000)  returns 0x00000001 (0001ms, 5159ms total)
T2B90 752:042 JLINK_Go() -- CPU_WriteMem(2 bytes @ 0x20000000) -- CPU_ReadMem(4 bytes @ 0xE0001000) -- CPU_WriteMem(4 bytes @ 0xE0002008) -- CPU_WriteMem(4 bytes @ 0xE000200C) -- CPU_WriteMem(4 bytes @ 0xE0002010) -- CPU_WriteMem(4 bytes @ 0xE0002014) -- CPU_WriteMem(4 bytes @ 0xE0002018) -- CPU_WriteMem(4 bytes @ 0xE000201C) -- CPU_WriteMem(4 bytes @ 0xE0001004) (0008ms, 5167ms total)
T2B90 752:050 JLINK_IsHalted() -- CPU_ReadMem(2 bytes @ 0x20000000)  returns TRUE (0005ms, 5172ms total)
T2B90 752:055 JLINK_ReadReg(R15 (PC))  returns 0x20000000 (0000ms, 5167ms total)
T2B90 752:055 JLINK_ClrBPEx(BPHandle = 0x00000001)  returns 0x00 (0000ms, 5167ms total)
T2B90 752:055 JLINK_ReadReg(R0)  returns 0x00000000 (0000ms, 5167ms total)
T2B90 752:055 JLINK_WriteReg(R0, 0x08000000)  returns 0x00 (0000ms, 5167ms total)
T2B90 752:055 JLINK_WriteReg(R1, 0x00B71B00)  returns 0x00 (0000ms, 5167ms total)
T2B90 752:055 JLINK_WriteReg(R2, 0x00000001)  returns 0x00 (0000ms, 5167ms total)
T2B90 752:055 JLINK_WriteReg(R3, 0x00000000)  returns 0x00 (0000ms, 5167ms total)
T2B90 752:055 JLINK_WriteReg(R4, 0x00000000)  returns 0x00 (0000ms, 5167ms total)
T2B90 752:055 JLINK_WriteReg(R5, 0x00000000)  returns 0x00 (0000ms, 5167ms total)
T2B90 752:055 JLINK_WriteReg(R6, 0x00000000)  returns 0x00 (0000ms, 5167ms total)
T2B90 752:055 JLINK_WriteReg(R7, 0x00000000)  returns 0x00 (0000ms, 5167ms total)
T2B90 752:055 JLINK_WriteReg(R8, 0x00000000)  returns 0x00 (0000ms, 5167ms total)
T2B90 752:055 JLINK_WriteReg(R9, 0x20000160)  returns 0x00 (0000ms, 5167ms total)
T2B90 752:055 JLINK_WriteReg(R10, 0x00000000)  returns 0x00 (0000ms, 5167ms total)
T2B90 752:055 JLINK_WriteReg(R11, 0x00000000)  returns 0x00 (0000ms, 5167ms total)
T2B90 752:055 JLINK_WriteReg(R12, 0x00000000)  returns 0x00 (0000ms, 5167ms total)
T2B90 752:055 JLINK_WriteReg(R13 (SP), 0x20001000)  returns 0x00 (0000ms, 5167ms total)
T2B90 752:055 JLINK_WriteReg(R14, 0x20000001)  returns 0x00 (0000ms, 5167ms total)
T2B90 752:055 JLINK_WriteReg(R15 (PC), 0x2000007C)  returns 0x00 (0000ms, 5167ms total)
T2B90 752:055 JLINK_WriteReg(XPSR, 0x01000000)  returns 0x00 (0000ms, 5167ms total)
T2B90 752:055 JLINK_WriteReg(MSP, 0x20001000)  returns 0x00 (0000ms, 5167ms total)
T2B90 752:055 JLINK_WriteReg(PSP, 0x20001000)  returns 0x00 (0000ms, 5167ms total)
T2B90 752:055 JLINK_WriteReg(CFBP, 0x00000000)  returns 0x00 (0000ms, 5167ms total)
T2B90 752:055 JLINK_SetBPEx(Addr = 0x20000000, Type = 0xFFFFFFF2)  returns 0x00000002 (0000ms, 5167ms total)
T2B90 752:055 JLINK_Go() -- CPU_ReadMem(4 bytes @ 0xE0001000) (0004ms, 5171ms total)
T2B90 752:059 JLINK_IsHalted()  returns FALSE (0001ms, 5172ms total)
T2B90 752:086 JLINK_IsHalted() -- CPU_ReadMem(2 bytes @ 0x20000000)  returns TRUE (0005ms, 5176ms total)
T2B90 752:091 JLINK_ReadReg(R15 (PC))  returns 0x20000000 (0000ms, 5171ms total)
T2B90 752:091 JLINK_ClrBPEx(BPHandle = 0x00000002)  returns 0x00 (0000ms, 5171ms total)
T2B90 752:091 JLINK_ReadReg(R0)  returns 0x00000000 (0000ms, 5171ms total)
T2B90 752:143 JLINK_WriteReg(R0, 0x00000001)  returns 0x00 (0000ms, 5171ms total)
T2B90 752:143 JLINK_WriteReg(R1, 0x00B71B00)  returns 0x00 (0000ms, 5171ms total)
T2B90 752:143 JLINK_WriteReg(R2, 0x00000001)  returns 0x00 (0000ms, 5171ms total)
T2B90 752:143 JLINK_WriteReg(R3, 0x00000000)  returns 0x00 (0000ms, 5171ms total)
T2B90 752:143 JLINK_WriteReg(R4, 0x00000000)  returns 0x00 (0000ms, 5171ms total)
T2B90 752:143 JLINK_WriteReg(R5, 0x00000000)  returns 0x00 (0000ms, 5171ms total)
T2B90 752:143 JLINK_WriteReg(R6, 0x00000000)  returns 0x00 (0000ms, 5171ms total)
T2B90 752:143 JLINK_WriteReg(R7, 0x00000000)  returns 0x00 (0000ms, 5171ms total)
T2B90 752:143 JLINK_WriteReg(R8, 0x00000000)  returns 0x00 (0000ms, 5171ms total)
T2B90 752:143 JLINK_WriteReg(R9, 0x20000160)  returns 0x00 (0000ms, 5171ms total)
T2B90 752:143 JLINK_WriteReg(R10, 0x00000000)  returns 0x00 (0000ms, 5171ms total)
T2B90 752:143 JLINK_WriteReg(R11, 0x00000000)  returns 0x00 (0000ms, 5171ms total)
T2B90 752:143 JLINK_WriteReg(R12, 0x00000000)  returns 0x00 (0000ms, 5171ms total)
T2B90 752:143 JLINK_WriteReg(R13 (SP), 0x20001000)  returns 0x00 (0000ms, 5171ms total)
T2B90 752:143 JLINK_WriteReg(R14, 0x20000001)  returns 0x00 (0000ms, 5171ms total)
T2B90 752:143 JLINK_WriteReg(R15 (PC), 0x2000006A)  returns 0x00 (0000ms, 5171ms total)
T2B90 752:143 JLINK_WriteReg(XPSR, 0x01000000)  returns 0x00 (0000ms, 5171ms total)
T2B90 752:143 JLINK_WriteReg(MSP, 0x20001000)  returns 0x00 (0000ms, 5171ms total)
T2B90 752:143 JLINK_WriteReg(PSP, 0x20001000)  returns 0x00 (0000ms, 5171ms total)
T2B90 752:143 JLINK_WriteReg(CFBP, 0x00000000)  returns 0x00 (0000ms, 5171ms total)
T2B90 752:143 JLINK_SetBPEx(Addr = 0x20000000, Type = 0xFFFFFFF2)  returns 0x00000003 (0000ms, 5171ms total)
T2B90 752:143 JLINK_Go() -- CPU_ReadMem(4 bytes @ 0xE0001000) (0005ms, 5176ms total)
T2B90 752:148 JLINK_IsHalted() -- CPU_ReadMem(2 bytes @ 0x20000000)  returns TRUE (0004ms, 5180ms total)
T2B90 752:152 JLINK_ReadReg(R15 (PC))  returns 0x20000000 (0000ms, 5176ms total)
T2B90 752:152 JLINK_ClrBPEx(BPHandle = 0x00000003)  returns 0x00 (0000ms, 5176ms total)
T2B90 752:152 JLINK_ReadReg(R0)  returns 0x00000000 (0000ms, 5176ms total)
T2B90 752:161 JLINK_WriteMem(0x20000000, 0x0164 Bytes, ...) - Data: 00 BE 0A E0 0D 78 2D 06 68 40 08 24 40 00 00 D3 ... -- CPU_WriteMem(356 bytes @ 0x20000000)  returns 0x164 (0003ms, 5179ms total)
T2B90 752:164 JLINK_WriteReg(R0, 0x08000000)  returns 0x00 (0000ms, 5179ms total)
T2B90 752:164 JLINK_WriteReg(R1, 0x00B71B00)  returns 0x00 (0000ms, 5179ms total)
T2B90 752:164 JLINK_WriteReg(R2, 0x00000002)  returns 0x00 (0000ms, 5179ms total)
T2B90 752:164 JLINK_WriteReg(R3, 0x00000000)  returns 0x00 (0000ms, 5179ms total)
T2B90 752:164 JLINK_WriteReg(R4, 0x00000000)  returns 0x00 (0000ms, 5179ms total)
T2B90 752:164 JLINK_WriteReg(R5, 0x00000000)  returns 0x00 (0000ms, 5179ms total)
T2B90 752:164 JLINK_WriteReg(R6, 0x00000000)  returns 0x00 (0000ms, 5179ms total)
T2B90 752:164 JLINK_WriteReg(R7, 0x00000000)  returns 0x00 (0000ms, 5179ms total)
T2B90 752:164 JLINK_WriteReg(R8, 0x00000000)  returns 0x00 (0000ms, 5179ms total)
T2B90 752:164 JLINK_WriteReg(R9, 0x20000160)  returns 0x00 (0000ms, 5179ms total)
T2B90 752:164 JLINK_WriteReg(R10, 0x00000000)  returns 0x00 (0000ms, 5179ms total)
T2B90 752:164 JLINK_WriteReg(R11, 0x00000000)  returns 0x00 (0000ms, 5179ms total)
T2B90 752:164 JLINK_WriteReg(R12, 0x00000000)  returns 0x00 (0000ms, 5179ms total)
T2B90 752:164 JLINK_WriteReg(R13 (SP), 0x20001000)  returns 0x00 (0001ms, 5180ms total)
T2B90 752:165 JLINK_WriteReg(R14, 0x20000001)  returns 0x00 (0000ms, 5180ms total)
T2B90 752:165 JLINK_WriteReg(R15 (PC), 0x20000038)  returns 0x00 (0000ms, 5180ms total)
T2B90 752:165 JLINK_WriteReg(XPSR, 0x01000000)  returns 0x00 (0000ms, 5180ms total)
T2B90 752:165 JLINK_WriteReg(MSP, 0x20001000)  returns 0x00 (0000ms, 5180ms total)
T2B90 752:165 JLINK_WriteReg(PSP, 0x20001000)  returns 0x00 (0000ms, 5180ms total)
T2B90 752:165 JLINK_WriteReg(CFBP, 0x00000000)  returns 0x00 (0000ms, 5180ms total)
T2B90 752:165 JLINK_SetBPEx(Addr = 0x20000000, Type = 0xFFFFFFF2) -- CPU_ReadMem(2 bytes @ 0x20000000)  returns 0x00000004 (0001ms, 5181ms total)
T2B90 752:166 JLINK_Go() -- CPU_WriteMem(2 bytes @ 0x20000000) -- CPU_ReadMem(4 bytes @ 0xE0001000) (0005ms, 5186ms total)
T2B90 752:171 JLINK_IsHalted() -- CPU_ReadMem(2 bytes @ 0x20000000)  returns TRUE (0005ms, 5191ms total)
T2B90 752:176 JLINK_ReadReg(R15 (PC))  returns 0x20000000 (0000ms, 5186ms total)
T2B90 752:176 JLINK_ClrBPEx(BPHandle = 0x00000004)  returns 0x00 (0000ms, 5186ms total)
T2B90 752:176 JLINK_ReadReg(R0)  returns 0x00000000 (0000ms, 5186ms total)
T2B90 752:176 JLINK_WriteMem(0x20000164, 0x029C Bytes, ...) - Data: 18 26 00 20 9D 10 00 08 65 03 00 08 67 03 00 08 ... -- CPU_WriteMem(668 bytes @ 0x20000164)  returns 0x29C (0006ms, 5192ms total)
T2B90 752:182 JLINK_WriteMem(0x20000400, 0x0164 Bytes, ...) - Data: 77 5F 44 69 61 6C 6F 67 0D 0A 00 00 4C 6F 61 64 ... -- CPU_WriteMem(356 bytes @ 0x20000400)  returns 0x164 (0003ms, 5195ms total)
T2B90 752:185 JLINK_WriteReg(R0, 0x08000000)  returns 0x00 (0000ms, 5195ms total)
T2B90 752:185 JLINK_WriteReg(R1, 0x00000400)  returns 0x00 (0000ms, 5195ms total)
T2B90 752:185 JLINK_WriteReg(R2, 0x20000164)  returns 0x00 (0000ms, 5195ms total)
T2B90 752:185 JLINK_WriteReg(R3, 0x00000000)  returns 0x00 (0000ms, 5195ms total)
T2B90 752:185 JLINK_WriteReg(R4, 0x00000000)  returns 0x00 (0000ms, 5195ms total)
T2B90 752:185 JLINK_WriteReg(R5, 0x00000000)  returns 0x00 (0000ms, 5195ms total)
T2B90 752:185 JLINK_WriteReg(R6, 0x00000000)  returns 0x00 (0000ms, 5195ms total)
T2B90 752:185 JLINK_WriteReg(R7, 0x00000000)  returns 0x00 (0000ms, 5195ms total)
T2B90 752:185 JLINK_WriteReg(R8, 0x00000000)  returns 0x00 (0000ms, 5195ms total)
T2B90 752:185 JLINK_WriteReg(R9, 0x20000160)  returns 0x00 (0000ms, 5195ms total)
T2B90 752:185 JLINK_WriteReg(R10, 0x00000000)  returns 0x00 (0000ms, 5195ms total)
T2B90 752:185 JLINK_WriteReg(R11, 0x00000000)  returns 0x00 (0000ms, 5195ms total)
T2B90 752:185 JLINK_WriteReg(R12, 0x00000000)  returns 0x00 (0000ms, 5195ms total)
T2B90 752:185 JLINK_WriteReg(R13 (SP), 0x20001000)  returns 0x00 (0000ms, 5195ms total)
T2B90 752:185 JLINK_WriteReg(R14, 0x20000001)  returns 0x00 (0000ms, 5195ms total)
T2B90 752:185 JLINK_WriteReg(R15 (PC), 0x200000F4)  returns 0x00 (0000ms, 5195ms total)
T2B90 752:185 JLINK_WriteReg(XPSR, 0x01000000)  returns 0x00 (0000ms, 5195ms total)
T2B90 752:185 JLINK_WriteReg(MSP, 0x20001000)  returns 0x00 (0000ms, 5195ms total)
T2B90 752:185 JLINK_WriteReg(PSP, 0x20001000)  returns 0x00 (0000ms, 5195ms total)
T2B90 752:185 JLINK_WriteReg(CFBP, 0x00000000)  returns 0x00 (0000ms, 5195ms total)
T2B90 752:185 JLINK_SetBPEx(Addr = 0x20000000, Type = 0xFFFFFFF2)  returns 0x00000005 (0000ms, 5195ms total)
T2B90 752:185 JLINK_Go() -- CPU_ReadMem(4 bytes @ 0xE0001000) (0005ms, 5200ms total)
T2B90 752:190 JLINK_IsHalted()  returns FALSE (0001ms, 5201ms total)
T2B90 752:200 JLINK_IsHalted()  returns FALSE (0001ms, 5201ms total)
T2B90 752:203 JLINK_IsHalted()  returns FALSE (0001ms, 5201ms total)
T2B90 752:206 JLINK_IsHalted()  returns FALSE (0001ms, 5201ms total)
T2B90 752:209 JLINK_IsHalted()  returns FALSE (0000ms, 5200ms total)
T2B90 752:211 JLINK_IsHalted()  returns FALSE (0001ms, 5201ms total)
T2B90 752:214 JLINK_IsHalted()  returns FALSE (0001ms, 5201ms total)
T2B90 752:217 JLINK_IsHalted()  returns FALSE (0001ms, 5201ms total)
T2B90 752:220 JLINK_IsHalted()  returns FALSE (0001ms, 5201ms total)
T2B90 752:222 JLINK_IsHalted() -- CPU_ReadMem(2 bytes @ 0x20000000)  returns TRUE (0004ms, 5204ms total)
T2B90 752:226 JLINK_ReadReg(R15 (PC))  returns 0x20000000 (0000ms, 5204ms total)
T2B90 752:226 JLINK_ClrBPEx(BPHandle = 0x00000005)  returns 0x00 (0000ms, 5204ms total)
T2B90 752:226 JLINK_ReadReg(R0)  returns 0x00000000 (0000ms, 5204ms total)
T2B90 752:227 JLINK_WriteMem(0x20000164, 0x029C Bytes, ...) - Data: 08 46 40 68 20 F4 7C 10 48 60 08 46 40 68 40 F4 ... -- CPU_WriteMem(668 bytes @ 0x20000164)  returns 0x29C (0006ms, 5210ms total)
T2B90 752:233 JLINK_WriteMem(0x20000400, 0x0164 Bytes, ...) - Data: 16 FD 08 BD 70 B5 06 46 0C 46 15 46 01 21 C8 02 ... -- CPU_WriteMem(356 bytes @ 0x20000400)  returns 0x164 (0003ms, 5213ms total)
T2B90 752:236 JLINK_WriteReg(R0, 0x08000400)  returns 0x00 (0000ms, 5213ms total)
T2B90 752:236 JLINK_WriteReg(R1, 0x00000400)  returns 0x00 (0000ms, 5213ms total)
T2B90 752:236 JLINK_WriteReg(R2, 0x20000164)  returns 0x00 (0000ms, 5213ms total)
T2B90 752:236 JLINK_WriteReg(R3, 0x00000000)  returns 0x00 (0000ms, 5213ms total)
T2B90 752:236 JLINK_WriteReg(R4, 0x00000000)  returns 0x00 (0000ms, 5213ms total)
T2B90 752:236 JLINK_WriteReg(R5, 0x00000000)  returns 0x00 (0000ms, 5213ms total)
T2B90 752:236 JLINK_WriteReg(R6, 0x00000000)  returns 0x00 (0000ms, 5213ms total)
T2B90 752:236 JLINK_WriteReg(R7, 0x00000000)  returns 0x00 (0000ms, 5213ms total)
T2B90 752:236 JLINK_WriteReg(R8, 0x00000000)  returns 0x00 (0000ms, 5213ms total)
T2B90 752:236 JLINK_WriteReg(R9, 0x20000160)  returns 0x00 (0000ms, 5213ms total)
T2B90 752:236 JLINK_WriteReg(R10, 0x00000000)  returns 0x00 (0000ms, 5213ms total)
T2B90 752:236 JLINK_WriteReg(R11, 0x00000000)  returns 0x00 (0000ms, 5213ms total)
T2B90 752:236 JLINK_WriteReg(R12, 0x00000000)  returns 0x00 (0000ms, 5213ms total)
T2B90 752:236 JLINK_WriteReg(R13 (SP), 0x20001000)  returns 0x00 (0000ms, 5213ms total)
T2B90 752:236 JLINK_WriteReg(R14, 0x20000001)  returns 0x00 (0000ms, 5213ms total)
T2B90 752:236 JLINK_WriteReg(R15 (PC), 0x200000F4)  returns 0x00 (0000ms, 5213ms total)
T2B90 752:236 JLINK_WriteReg(XPSR, 0x01000000)  returns 0x00 (0000ms, 5213ms total)
T2B90 752:236 JLINK_WriteReg(MSP, 0x20001000)  returns 0x00 (0000ms, 5213ms total)
T2B90 752:236 JLINK_WriteReg(PSP, 0x20001000)  returns 0x00 (0000ms, 5213ms total)
T2B90 752:236 JLINK_WriteReg(CFBP, 0x00000000)  returns 0x00 (0000ms, 5213ms total)
T2B90 752:236 JLINK_SetBPEx(Addr = 0x20000000, Type = 0xFFFFFFF2)  returns 0x00000006 (0000ms, 5213ms total)
T2B90 752:236 JLINK_Go() -- CPU_ReadMem(4 bytes @ 0xE0001000) (0005ms, 5218ms total)
T2B90 752:241 JLINK_IsHalted()  returns FALSE (0001ms, 5219ms total)
T2B90 752:244 JLINK_IsHalted()  returns FALSE (0000ms, 5218ms total)
T2B90 752:246 JLINK_IsHalted()  returns FALSE (0002ms, 5220ms total)
T2B90 752:250 JLINK_IsHalted()  returns FALSE (0001ms, 5219ms total)
T2B90 752:253 JLINK_IsHalted()  returns FALSE (0001ms, 5219ms total)
T2B90 752:256 JLINK_IsHalted()  returns FALSE (0001ms, 5219ms total)
T2B90 752:259 JLINK_IsHalted()  returns FALSE (0001ms, 5219ms total)
T2B90 752:262 JLINK_IsHalted()  returns FALSE (0001ms, 5219ms total)
T2B90 752:267 JLINK_IsHalted()  returns FALSE (0001ms, 5219ms total)
T2B90 752:270 JLINK_IsHalted()  returns FALSE (0001ms, 5219ms total)
T2B90 752:273 JLINK_IsHalted() -- CPU_ReadMem(2 bytes @ 0x20000000)  returns TRUE (0005ms, 5223ms total)
T2B90 752:278 JLINK_ReadReg(R15 (PC))  returns 0x20000000 (0000ms, 5218ms total)
T2B90 752:278 JLINK_ClrBPEx(BPHandle = 0x00000006)  returns 0x00 (0000ms, 5218ms total)
T2B90 752:278 JLINK_ReadReg(R0)  returns 0x00000000 (0000ms, 5218ms total)
T2B90 752:279 JLINK_WriteMem(0x20000164, 0x029C Bytes, ...) - Data: 1E 20 00 F0 85 FB 64 2D 04 DB 00 20 23 49 08 60 ... -- CPU_WriteMem(668 bytes @ 0x20000164)  returns 0x29C (0004ms, 5222ms total)
T2B90 752:283 JLINK_WriteMem(0x20000400, 0x0164 Bytes, ...) - Data: 01 A9 06 48 01 F0 60 F9 01 21 04 48 01 F0 01 FA ... -- CPU_WriteMem(356 bytes @ 0x20000400)  returns 0x164 (0004ms, 5226ms total)
T2B90 752:287 JLINK_WriteReg(R0, 0x08000800)  returns 0x00 (0000ms, 5226ms total)
T2B90 752:287 JLINK_WriteReg(R1, 0x00000400)  returns 0x00 (0000ms, 5226ms total)
T2B90 752:287 JLINK_WriteReg(R2, 0x20000164)  returns 0x00 (0000ms, 5226ms total)
T2B90 752:287 JLINK_WriteReg(R3, 0x00000000)  returns 0x00 (0000ms, 5226ms total)
T2B90 752:287 JLINK_WriteReg(R4, 0x00000000)  returns 0x00 (0000ms, 5226ms total)
T2B90 752:287 JLINK_WriteReg(R5, 0x00000000)  returns 0x00 (0000ms, 5226ms total)
T2B90 752:287 JLINK_WriteReg(R6, 0x00000000)  returns 0x00 (0000ms, 5226ms total)
T2B90 752:287 JLINK_WriteReg(R7, 0x00000000)  returns 0x00 (0000ms, 5226ms total)
T2B90 752:287 JLINK_WriteReg(R8, 0x00000000)  returns 0x00 (0000ms, 5226ms total)
T2B90 752:287 JLINK_WriteReg(R9, 0x20000160)  returns 0x00 (0000ms, 5226ms total)
T2B90 752:287 JLINK_WriteReg(R10, 0x00000000)  returns 0x00 (0000ms, 5226ms total)
T2B90 752:287 JLINK_WriteReg(R11, 0x00000000)  returns 0x00 (0000ms, 5226ms total)
T2B90 752:287 JLINK_WriteReg(R12, 0x00000000)  returns 0x00 (0000ms, 5226ms total)
T2B90 752:287 JLINK_WriteReg(R13 (SP), 0x20001000)  returns 0x00 (0000ms, 5226ms total)
T2B90 752:287 JLINK_WriteReg(R14, 0x20000001)  returns 0x00 (0000ms, 5226ms total)
T2B90 752:287 JLINK_WriteReg(R15 (PC), 0x200000F4)  returns 0x00 (0000ms, 5226ms total)
T2B90 752:287 JLINK_WriteReg(XPSR, 0x01000000)  returns 0x00 (0000ms, 5226ms total)
T2B90 752:287 JLINK_WriteReg(MSP, 0x20001000)  returns 0x00 (0000ms, 5226ms total)
T2B90 752:287 JLINK_WriteReg(PSP, 0x20001000)  returns 0x00 (0000ms, 5226ms total)
T2B90 752:287 JLINK_WriteReg(CFBP, 0x00000000)  returns 0x00 (0000ms, 5226ms total)
T2B90 752:287 JLINK_SetBPEx(Addr = 0x20000000, Type = 0xFFFFFFF2)  returns 0x00000007 (0000ms, 5226ms total)
T2B90 752:287 JLINK_Go() -- CPU_ReadMem(4 bytes @ 0xE0001000) (0005ms, 5231ms total)
T2B90 752:292 JLINK_IsHalted()  returns FALSE (0001ms, 5232ms total)
T2B90 752:295 JLINK_IsHalted()  returns FALSE (0001ms, 5232ms total)
T2B90 752:298 JLINK_IsHalted()  returns FALSE (0000ms, 5231ms total)
T2B90 752:302 JLINK_IsHalted()  returns FALSE (0001ms, 5232ms total)
T2B90 752:305 JLINK_IsHalted()  returns FALSE (0001ms, 5232ms total)
T2B90 752:308 JLINK_IsHalted()  returns FALSE (0001ms, 5232ms total)
T2B90 752:311 JLINK_IsHalted()  returns FALSE (0001ms, 5232ms total)
T2B90 752:314 JLINK_IsHalted()  returns FALSE (0001ms, 5232ms total)
T2B90 752:317 JLINK_IsHalted()  returns FALSE (0001ms, 5232ms total)
T2B90 752:320 JLINK_IsHalted()  returns FALSE (0001ms, 5232ms total)
T2B90 752:323 JLINK_IsHalted() -- CPU_ReadMem(2 bytes @ 0x20000000)  returns TRUE (0005ms, 5236ms total)
T2B90 752:328 JLINK_ReadReg(R15 (PC))  returns 0x20000000 (0000ms, 5231ms total)
T2B90 752:328 JLINK_ClrBPEx(BPHandle = 0x00000007)  returns 0x00 (0000ms, 5231ms total)
T2B90 752:328 JLINK_ReadReg(R0)  returns 0x00000000 (0000ms, 5231ms total)
T2B90 752:329 JLINK_WriteMem(0x20000164, 0x029C Bytes, ...) - Data: 0E 4B 18 70 D0 43 C0 B2 88 42 0C D1 59 B9 0D 48 ... -- CPU_WriteMem(668 bytes @ 0x20000164)  returns 0x29C (0006ms, 5237ms total)
T2B90 752:335 JLINK_WriteMem(0x20000400, 0x0164 Bytes, ...) - Data: 53 73 D9 10 42 F2 10 72 51 43 0A 22 2A 4B 1A 80 ... -- CPU_WriteMem(356 bytes @ 0x20000400)  returns 0x164 (0003ms, 5240ms total)
T2B90 752:338 JLINK_WriteReg(R0, 0x08000C00)  returns 0x00 (0000ms, 5240ms total)
T2B90 752:338 JLINK_WriteReg(R1, 0x00000400)  returns 0x00 (0000ms, 5240ms total)
T2B90 752:338 JLINK_WriteReg(R2, 0x20000164)  returns 0x00 (0000ms, 5240ms total)
T2B90 752:338 JLINK_WriteReg(R3, 0x00000000)  returns 0x00 (0000ms, 5240ms total)
T2B90 752:338 JLINK_WriteReg(R4, 0x00000000)  returns 0x00 (0000ms, 5240ms total)
T2B90 752:338 JLINK_WriteReg(R5, 0x00000000)  returns 0x00 (0000ms, 5240ms total)
T2B90 752:338 JLINK_WriteReg(R6, 0x00000000)  returns 0x00 (0000ms, 5240ms total)
T2B90 752:338 JLINK_WriteReg(R7, 0x00000000)  returns 0x00 (0000ms, 5240ms total)
T2B90 752:338 JLINK_WriteReg(R8, 0x00000000)  returns 0x00 (0000ms, 5240ms total)
T2B90 752:338 JLINK_WriteReg(R9, 0x20000160)  returns 0x00 (0000ms, 5240ms total)
T2B90 752:338 JLINK_WriteReg(R10, 0x00000000)  returns 0x00 (0000ms, 5240ms total)
T2B90 752:338 JLINK_WriteReg(R11, 0x00000000)  returns 0x00 (0000ms, 5240ms total)
T2B90 752:338 JLINK_WriteReg(R12, 0x00000000)  returns 0x00 (0000ms, 5240ms total)
T2B90 752:338 JLINK_WriteReg(R13 (SP), 0x20001000)  returns 0x00 (0000ms, 5240ms total)
T2B90 752:338 JLINK_WriteReg(R14, 0x20000001)  returns 0x00 (0000ms, 5240ms total)
T2B90 752:338 JLINK_WriteReg(R15 (PC), 0x200000F4)  returns 0x00 (0000ms, 5240ms total)
T2B90 752:338 JLINK_WriteReg(XPSR, 0x01000000)  returns 0x00 (0000ms, 5240ms total)
T2B90 752:338 JLINK_WriteReg(MSP, 0x20001000)  returns 0x00 (0000ms, 5240ms total)
T2B90 752:338 JLINK_WriteReg(PSP, 0x20001000)  returns 0x00 (0000ms, 5240ms total)
T2B90 752:338 JLINK_WriteReg(CFBP, 0x00000000)  returns 0x00 (0000ms, 5240ms total)
T2B90 752:338 JLINK_SetBPEx(Addr = 0x20000000, Type = 0xFFFFFFF2)  returns 0x00000008 (0000ms, 5240ms total)
T2B90 752:338 JLINK_Go() -- CPU_ReadMem(4 bytes @ 0xE0001000) (0005ms, 5245ms total)
T2B90 752:343 JLINK_IsHalted()  returns FALSE (0000ms, 5245ms total)
T2B90 752:345 JLINK_IsHalted()  returns FALSE (0000ms, 5245ms total)
T2B90 752:347 JLINK_IsHalted()  returns FALSE (0001ms, 5246ms total)
T2B90 752:351 JLINK_IsHalted()  returns FALSE (0000ms, 5245ms total)
T2B90 752:354 JLINK_IsHalted()  returns FALSE (0001ms, 5246ms total)
T2B90 752:356 JLINK_IsHalted()  returns FALSE (0001ms, 5246ms total)
T2B90 752:359 JLINK_IsHalted()  returns FALSE (0000ms, 5245ms total)
T2B90 752:361 JLINK_IsHalted()  returns FALSE (0001ms, 5246ms total)
T2B90 752:364 JLINK_IsHalted()  returns FALSE (0001ms, 5246ms total)
T2B90 752:367 JLINK_IsHalted()  returns FALSE (0000ms, 5245ms total)
T2B90 752:370 JLINK_IsHalted()  returns FALSE (0000ms, 5245ms total)
T2B90 752:372 JLINK_IsHalted()  returns FALSE (0000ms, 5245ms total)
T2B90 752:374 JLINK_IsHalted() -- CPU_ReadMem(2 bytes @ 0x20000000)  returns TRUE (0003ms, 5248ms total)
T2B90 752:377 JLINK_ReadReg(R15 (PC))  returns 0x20000000 (0000ms, 5245ms total)
T2B90 752:377 JLINK_ClrBPEx(BPHandle = 0x00000008)  returns 0x00 (0000ms, 5245ms total)
T2B90 752:377 JLINK_ReadReg(R0)  returns 0x00000000 (0000ms, 5245ms total)
T2B90 752:378 JLINK_WriteMem(0x20000164, 0x029C Bytes, ...) - Data: 22 48 01 F0 F8 FF 01 21 20 48 01 F0 E8 FF 06 B0 ... -- CPU_WriteMem(668 bytes @ 0x20000164)  returns 0x29C (0005ms, 5250ms total)
T2B90 752:383 JLINK_WriteMem(0x20000400, 0x0164 Bytes, ...) - Data: 09 1F 09 68 41 F4 70 61 51 4A 12 1F 11 60 18 E0 ... -- CPU_WriteMem(356 bytes @ 0x20000400)  returns 0x164 (0003ms, 5253ms total)
T2B90 752:386 JLINK_WriteReg(R0, 0x08001000)  returns 0x00 (0000ms, 5253ms total)
T2B90 752:386 JLINK_WriteReg(R1, 0x00000400)  returns 0x00 (0000ms, 5253ms total)
T2B90 752:386 JLINK_WriteReg(R2, 0x20000164)  returns 0x00 (0000ms, 5253ms total)
T2B90 752:386 JLINK_WriteReg(R3, 0x00000000)  returns 0x00 (0000ms, 5253ms total)
T2B90 752:386 JLINK_WriteReg(R4, 0x00000000)  returns 0x00 (0000ms, 5253ms total)
T2B90 752:386 JLINK_WriteReg(R5, 0x00000000)  returns 0x00 (0000ms, 5253ms total)
T2B90 752:386 JLINK_WriteReg(R6, 0x00000000)  returns 0x00 (0000ms, 5253ms total)
T2B90 752:386 JLINK_WriteReg(R7, 0x00000000)  returns 0x00 (0000ms, 5253ms total)
T2B90 752:386 JLINK_WriteReg(R8, 0x00000000)  returns 0x00 (0000ms, 5253ms total)
T2B90 752:386 JLINK_WriteReg(R9, 0x20000160)  returns 0x00 (0000ms, 5253ms total)
T2B90 752:386 JLINK_WriteReg(R10, 0x00000000)  returns 0x00 (0000ms, 5253ms total)
T2B90 752:386 JLINK_WriteReg(R11, 0x00000000)  returns 0x00 (0000ms, 5253ms total)
T2B90 752:386 JLINK_WriteReg(R12, 0x00000000)  returns 0x00 (0000ms, 5253ms total)
T2B90 752:386 JLINK_WriteReg(R13 (SP), 0x20001000)  returns 0x00 (0000ms, 5253ms total)
T2B90 752:386 JLINK_WriteReg(R14, 0x20000001)  returns 0x00 (0000ms, 5253ms total)
T2B90 752:386 JLINK_WriteReg(R15 (PC), 0x200000F4)  returns 0x00 (0000ms, 5253ms total)
T2B90 752:386 JLINK_WriteReg(XPSR, 0x01000000)  returns 0x00 (0000ms, 5253ms total)
T2B90 752:386 JLINK_WriteReg(MSP, 0x20001000)  returns 0x00 (0000ms, 5253ms total)
T2B90 752:386 JLINK_WriteReg(PSP, 0x20001000)  returns 0x00 (0000ms, 5253ms total)
T2B90 752:386 JLINK_WriteReg(CFBP, 0x00000000)  returns 0x00 (0000ms, 5253ms total)
T2B90 752:386 JLINK_SetBPEx(Addr = 0x20000000, Type = 0xFFFFFFF2)  returns 0x00000009 (0000ms, 5253ms total)
T2B90 752:386 JLINK_Go() -- CPU_ReadMem(4 bytes @ 0xE0001000) (0004ms, 5257ms total)
T2B90 752:390 JLINK_IsHalted()  returns FALSE (0000ms, 5257ms total)
T2B90 752:393 JLINK_IsHalted()  returns FALSE (0000ms, 5257ms total)
T2B90 752:395 JLINK_IsHalted()  returns FALSE (0000ms, 5257ms total)
T2B90 752:397 JLINK_IsHalted()  returns FALSE (0000ms, 5257ms total)
T2B90 752:399 JLINK_IsHalted()  returns FALSE (0000ms, 5257ms total)
T2B90 752:401 JLINK_IsHalted()  returns FALSE (0000ms, 5257ms total)
T2B90 752:403 JLINK_IsHalted()  returns FALSE (0001ms, 5258ms total)
T2B90 752:406 JLINK_IsHalted()  returns FALSE (0000ms, 5257ms total)
T2B90 752:408 JLINK_IsHalted()  returns FALSE (0001ms, 5258ms total)
T2B90 752:411 JLINK_IsHalted()  returns FALSE (0001ms, 5258ms total)
T2B90 752:414 JLINK_IsHalted()  returns FALSE (0001ms, 5258ms total)
T2B90 752:417 JLINK_IsHalted()  returns FALSE (0001ms, 5258ms total)
T2B90 752:420 JLINK_IsHalted() -- CPU_ReadMem(2 bytes @ 0x20000000)  returns TRUE (0004ms, 5261ms total)
T2B90 752:424 JLINK_ReadReg(R15 (PC))  returns 0x20000000 (0000ms, 5257ms total)
T2B90 752:424 JLINK_ClrBPEx(BPHandle = 0x00000009)  returns 0x00 (0000ms, 5257ms total)
T2B90 752:424 JLINK_ReadReg(R0)  returns 0x00000000 (0000ms, 5257ms total)
T2B90 752:425 JLINK_WriteMem(0x20000164, 0x029C Bytes, ...) - Data: 08 60 41 48 3F 49 14 31 08 60 70 47 00 21 3D 49 ... -- CPU_WriteMem(668 bytes @ 0x20000164)  returns 0x29C (0006ms, 5263ms total)
T2B90 752:431 JLINK_WriteMem(0x20000400, 0x0164 Bytes, ...) - Data: BC 43 05 FA 03 FC 4C EA 04 04 91 F8 03 C0 BC F1 ... -- CPU_WriteMem(356 bytes @ 0x20000400)  returns 0x164 (0003ms, 5266ms total)
T2B90 752:434 JLINK_WriteReg(R0, 0x08001400)  returns 0x00 (0000ms, 5266ms total)
T2B90 752:434 JLINK_WriteReg(R1, 0x00000400)  returns 0x00 (0000ms, 5266ms total)
T2B90 752:434 JLINK_WriteReg(R2, 0x20000164)  returns 0x00 (0000ms, 5266ms total)
T2B90 752:434 JLINK_WriteReg(R3, 0x00000000)  returns 0x00 (0000ms, 5266ms total)
T2B90 752:434 JLINK_WriteReg(R4, 0x00000000)  returns 0x00 (0000ms, 5266ms total)
T2B90 752:434 JLINK_WriteReg(R5, 0x00000000)  returns 0x00 (0000ms, 5266ms total)
T2B90 752:434 JLINK_WriteReg(R6, 0x00000000)  returns 0x00 (0000ms, 5266ms total)
T2B90 752:434 JLINK_WriteReg(R7, 0x00000000)  returns 0x00 (0000ms, 5266ms total)
T2B90 752:434 JLINK_WriteReg(R8, 0x00000000)  returns 0x00 (0000ms, 5266ms total)
T2B90 752:434 JLINK_WriteReg(R9, 0x20000160)  returns 0x00 (0000ms, 5266ms total)
T2B90 752:434 JLINK_WriteReg(R10, 0x00000000)  returns 0x00 (0000ms, 5266ms total)
T2B90 752:434 JLINK_WriteReg(R11, 0x00000000)  returns 0x00 (0000ms, 5266ms total)
T2B90 752:434 JLINK_WriteReg(R12, 0x00000000)  returns 0x00 (0000ms, 5266ms total)
T2B90 752:434 JLINK_WriteReg(R13 (SP), 0x20001000)  returns 0x00 (0000ms, 5266ms total)
T2B90 752:434 JLINK_WriteReg(R14, 0x20000001)  returns 0x00 (0000ms, 5266ms total)
T2B90 752:434 JLINK_WriteReg(R15 (PC), 0x200000F4)  returns 0x00 (0000ms, 5266ms total)
T2B90 752:434 JLINK_WriteReg(XPSR, 0x01000000)  returns 0x00 (0000ms, 5266ms total)
T2B90 752:434 JLINK_WriteReg(MSP, 0x20001000)  returns 0x00 (0000ms, 5266ms total)
T2B90 752:434 JLINK_WriteReg(PSP, 0x20001000)  returns 0x00 (0000ms, 5266ms total)
T2B90 752:434 JLINK_WriteReg(CFBP, 0x00000000)  returns 0x00 (0000ms, 5266ms total)
T2B90 752:434 JLINK_SetBPEx(Addr = 0x20000000, Type = 0xFFFFFFF2)  returns 0x0000000A (0000ms, 5266ms total)
T2B90 752:434 JLINK_Go() -- CPU_ReadMem(4 bytes @ 0xE0001000) (0005ms, 5271ms total)
T2B90 752:439 JLINK_IsHalted()  returns FALSE (0001ms, 5272ms total)
T2B90 752:442 JLINK_IsHalted()  returns FALSE (0001ms, 5272ms total)
T2B90 752:445 JLINK_IsHalted()  returns FALSE (0001ms, 5272ms total)
T2B90 752:447 JLINK_IsHalted()  returns FALSE (0001ms, 5272ms total)
T2B90 752:449 JLINK_IsHalted()  returns FALSE (0001ms, 5272ms total)
T2B90 752:451 JLINK_IsHalted()  returns FALSE (0000ms, 5271ms total)
T2B90 752:454 JLINK_IsHalted()  returns FALSE (0001ms, 5272ms total)
T2B90 752:456 JLINK_IsHalted()  returns FALSE (0001ms, 5272ms total)
T2B90 752:459 JLINK_IsHalted()  returns FALSE (0001ms, 5272ms total)
T2B90 752:461 JLINK_IsHalted()  returns FALSE (0001ms, 5272ms total)
T2B90 752:464 JLINK_IsHalted()  returns FALSE (0001ms, 5272ms total)
T2B90 752:467 JLINK_IsHalted()  returns FALSE (0000ms, 5271ms total)
T2B90 752:469 JLINK_IsHalted() -- CPU_ReadMem(2 bytes @ 0x20000000)  returns TRUE (0004ms, 5275ms total)
T2B90 752:473 JLINK_ReadReg(R15 (PC))  returns 0x20000000 (0000ms, 5271ms total)
T2B90 752:473 JLINK_ClrBPEx(BPHandle = 0x0000000A)  returns 0x00 (0000ms, 5271ms total)
T2B90 752:473 JLINK_ReadReg(R0)  returns 0x00000000 (0000ms, 5271ms total)
T2B90 752:473 JLINK_WriteMem(0x20000164, 0x029C Bytes, ...) - Data: 0F 23 03 FA 04 F2 16 4B 08 33 8C 10 53 F8 24 30 ... -- CPU_WriteMem(668 bytes @ 0x20000164)  returns 0x29C (0005ms, 5276ms total)
T2B90 752:478 JLINK_WriteMem(0x20000400, 0x0164 Bytes, ...) - Data: 98 49 08 66 70 47 01 46 00 20 93 4A 50 68 20 F0 ... -- CPU_WriteMem(356 bytes @ 0x20000400)  returns 0x164 (0004ms, 5280ms total)
T2B90 752:482 JLINK_WriteReg(R0, 0x08001800)  returns 0x00 (0000ms, 5280ms total)
T2B90 752:482 JLINK_WriteReg(R1, 0x00000400)  returns 0x00 (0000ms, 5280ms total)
T2B90 752:482 JLINK_WriteReg(R2, 0x20000164)  returns 0x00 (0000ms, 5280ms total)
T2B90 752:482 JLINK_WriteReg(R3, 0x00000000)  returns 0x00 (0000ms, 5280ms total)
T2B90 752:482 JLINK_WriteReg(R4, 0x00000000)  returns 0x00 (0000ms, 5280ms total)
T2B90 752:482 JLINK_WriteReg(R5, 0x00000000)  returns 0x00 (0000ms, 5280ms total)
T2B90 752:482 JLINK_WriteReg(R6, 0x00000000)  returns 0x00 (0000ms, 5280ms total)
T2B90 752:482 JLINK_WriteReg(R7, 0x00000000)  returns 0x00 (0000ms, 5280ms total)
T2B90 752:482 JLINK_WriteReg(R8, 0x00000000)  returns 0x00 (0000ms, 5280ms total)
T2B90 752:482 JLINK_WriteReg(R9, 0x20000160)  returns 0x00 (0000ms, 5280ms total)
T2B90 752:482 JLINK_WriteReg(R10, 0x00000000)  returns 0x00 (0000ms, 5280ms total)
T2B90 752:482 JLINK_WriteReg(R11, 0x00000000)  returns 0x00 (0000ms, 5280ms total)
T2B90 752:482 JLINK_WriteReg(R12, 0x00000000)  returns 0x00 (0000ms, 5280ms total)
T2B90 752:482 JLINK_WriteReg(R13 (SP), 0x20001000)  returns 0x00 (0000ms, 5280ms total)
T2B90 752:482 JLINK_WriteReg(R14, 0x20000001)  returns 0x00 (0000ms, 5280ms total)
T2B90 752:482 JLINK_WriteReg(R15 (PC), 0x200000F4)  returns 0x00 (0000ms, 5280ms total)
T2B90 752:482 JLINK_WriteReg(XPSR, 0x01000000)  returns 0x00 (0000ms, 5280ms total)
T2B90 752:482 JLINK_WriteReg(MSP, 0x20001000)  returns 0x00 (0000ms, 5280ms total)
T2B90 752:482 JLINK_WriteReg(PSP, 0x20001000)  returns 0x00 (0000ms, 5280ms total)
T2B90 752:482 JLINK_WriteReg(CFBP, 0x00000000)  returns 0x00 (0000ms, 5280ms total)
T2B90 752:482 JLINK_SetBPEx(Addr = 0x20000000, Type = 0xFFFFFFF2)  returns 0x0000000B (0000ms, 5280ms total)
T2B90 752:482 JLINK_Go() -- CPU_ReadMem(4 bytes @ 0xE0001000) (0005ms, 5285ms total)
T2B90 752:487 JLINK_IsHalted()  returns FALSE (0001ms, 5286ms total)
T2B90 752:491 JLINK_IsHalted()  returns FALSE (0000ms, 5285ms total)
T2B90 752:494 JLINK_IsHalted()  returns FALSE (0000ms, 5285ms total)
T2B90 752:496 JLINK_IsHalted()  returns FALSE (0001ms, 5286ms total)
T2B90 752:500 JLINK_IsHalted()  returns FALSE (0000ms, 5285ms total)
T2B90 752:502 JLINK_IsHalted()  returns FALSE (0000ms, 5285ms total)
T2B90 752:505 JLINK_IsHalted()  returns FALSE (0000ms, 5285ms total)
T2B90 752:508 JLINK_IsHalted()  returns FALSE (0000ms, 5285ms total)
T2B90 752:510 JLINK_IsHalted()  returns FALSE (0000ms, 5285ms total)
T2B90 752:513 JLINK_IsHalted()  returns FALSE (0001ms, 5286ms total)
T2B90 752:516 JLINK_IsHalted()  returns FALSE (0001ms, 5286ms total)
T2B90 752:519 JLINK_IsHalted() -- CPU_ReadMem(2 bytes @ 0x20000000)  returns TRUE (0004ms, 5289ms total)
T2B90 752:523 JLINK_ReadReg(R15 (PC))  returns 0x20000000 (0000ms, 5285ms total)
T2B90 752:523 JLINK_ClrBPEx(BPHandle = 0x0000000B)  returns 0x00 (0000ms, 5285ms total)
T2B90 752:523 JLINK_ReadReg(R0)  returns 0x00000000 (0000ms, 5285ms total)
T2B90 752:524 JLINK_WriteMem(0x20000164, 0x029C Bytes, ...) - Data: 43 4D 6B 5C 45 68 DD 40 85 60 3A 4D 6D 68 05 F4 ... -- CPU_WriteMem(668 bytes @ 0x20000164)  returns 0x29C (0005ms, 5290ms total)
T2B90 752:529 JLINK_WriteMem(0x20000400, 0x0164 Bytes, ...) - Data: 01 80 41 80 81 80 C1 80 02 21 81 60 00 21 81 81 ... -- CPU_WriteMem(356 bytes @ 0x20000400)  returns 0x164 (0003ms, 5293ms total)
T2B90 752:532 JLINK_WriteReg(R0, 0x08001C00)  returns 0x00 (0000ms, 5293ms total)
T2B90 752:532 JLINK_WriteReg(R1, 0x00000400)  returns 0x00 (0000ms, 5293ms total)
T2B90 752:532 JLINK_WriteReg(R2, 0x20000164)  returns 0x00 (0000ms, 5293ms total)
T2B90 752:532 JLINK_WriteReg(R3, 0x00000000)  returns 0x00 (0000ms, 5293ms total)
T2B90 752:532 JLINK_WriteReg(R4, 0x00000000)  returns 0x00 (0000ms, 5293ms total)
T2B90 752:532 JLINK_WriteReg(R5, 0x00000000)  returns 0x00 (0000ms, 5293ms total)
T2B90 752:532 JLINK_WriteReg(R6, 0x00000000)  returns 0x00 (0000ms, 5293ms total)
T2B90 752:532 JLINK_WriteReg(R7, 0x00000000)  returns 0x00 (0000ms, 5293ms total)
T2B90 752:532 JLINK_WriteReg(R8, 0x00000000)  returns 0x00 (0000ms, 5293ms total)
T2B90 752:532 JLINK_WriteReg(R9, 0x20000160)  returns 0x00 (0000ms, 5293ms total)
T2B90 752:532 JLINK_WriteReg(R10, 0x00000000)  returns 0x00 (0000ms, 5293ms total)
T2B90 752:532 JLINK_WriteReg(R11, 0x00000000)  returns 0x00 (0000ms, 5293ms total)
T2B90 752:532 JLINK_WriteReg(R12, 0x00000000)  returns 0x00 (0000ms, 5293ms total)
T2B90 752:532 JLINK_WriteReg(R13 (SP), 0x20001000)  returns 0x00 (0000ms, 5293ms total)
T2B90 752:532 JLINK_WriteReg(R14, 0x20000001)  returns 0x00 (0000ms, 5293ms total)
T2B90 752:532 JLINK_WriteReg(R15 (PC), 0x200000F4)  returns 0x00 (0000ms, 5293ms total)
T2B90 752:532 JLINK_WriteReg(XPSR, 0x01000000)  returns 0x00 (0000ms, 5293ms total)
T2B90 752:532 JLINK_WriteReg(MSP, 0x20001000)  returns 0x00 (0000ms, 5293ms total)
T2B90 752:532 JLINK_WriteReg(PSP, 0x20001000)  returns 0x00 (0000ms, 5293ms total)
T2B90 752:532 JLINK_WriteReg(CFBP, 0x00000000)  returns 0x00 (0000ms, 5293ms total)
T2B90 752:532 JLINK_SetBPEx(Addr = 0x20000000, Type = 0xFFFFFFF2)  returns 0x0000000C (0000ms, 5293ms total)
T2B90 752:532 JLINK_Go() -- CPU_ReadMem(4 bytes @ 0xE0001000) (0004ms, 5297ms total)
T2B90 752:536 JLINK_IsHalted()  returns FALSE (0001ms, 5298ms total)
T2B90 752:539 JLINK_IsHalted()  returns FALSE (0001ms, 5298ms total)
T2B90 752:542 JLINK_IsHalted()  returns FALSE (0001ms, 5298ms total)
T2B90 752:545 JLINK_IsHalted()  returns FALSE (0001ms, 5298ms total)
T2B90 752:548 JLINK_IsHalted()  returns FALSE (0000ms, 5297ms total)
T2B90 752:550 JLINK_IsHalted()  returns FALSE (0001ms, 5298ms total)
T2B90 752:553 JLINK_IsHalted()  returns FALSE (0001ms, 5298ms total)
T2B90 752:555 JLINK_IsHalted()  returns FALSE (0001ms, 5298ms total)
T2B90 752:559 JLINK_IsHalted()  returns FALSE (0000ms, 5297ms total)
T2B90 752:562 JLINK_IsHalted()  returns FALSE (0001ms, 5298ms total)
T2B90 752:565 JLINK_IsHalted()  returns FALSE (0000ms, 5297ms total)
T2B90 752:569 JLINK_IsHalted() -- CPU_ReadMem(2 bytes @ 0x20000000)  returns TRUE (0004ms, 5301ms total)
T2B90 752:574 JLINK_ReadReg(R15 (PC))  returns 0x20000000 (0000ms, 5297ms total)
T2B90 752:574 JLINK_ClrBPEx(BPHandle = 0x0000000C)  returns 0x00 (0000ms, 5297ms total)
T2B90 752:574 JLINK_ReadReg(R0)  returns 0x00000000 (0000ms, 5297ms total)
T2B90 752:574 JLINK_WriteMem(0x20000164, 0x029C Bytes, ...) - Data: F0 BD 10 B5 00 22 01 F0 0F 04 01 23 A3 40 9A B2 ... -- CPU_WriteMem(668 bytes @ 0x20000164)  returns 0x29C (0005ms, 5302ms total)
T2B90 752:579 JLINK_WriteMem(0x20000400, 0x0164 Bytes, ...) - Data: 4D 89 2A 43 4F F6 FB 75 2A 40 8D 88 2A 43 4F F6 ... -- CPU_WriteMem(356 bytes @ 0x20000400)  returns 0x164 (0004ms, 5306ms total)
T2B90 752:583 JLINK_WriteReg(R0, 0x08002000)  returns 0x00 (0000ms, 5306ms total)
T2B90 752:583 JLINK_WriteReg(R1, 0x00000400)  returns 0x00 (0000ms, 5306ms total)
T2B90 752:583 JLINK_WriteReg(R2, 0x20000164)  returns 0x00 (0000ms, 5306ms total)
T2B90 752:583 JLINK_WriteReg(R3, 0x00000000)  returns 0x00 (0000ms, 5306ms total)
T2B90 752:583 JLINK_WriteReg(R4, 0x00000000)  returns 0x00 (0000ms, 5306ms total)
T2B90 752:583 JLINK_WriteReg(R5, 0x00000000)  returns 0x00 (0000ms, 5306ms total)
T2B90 752:583 JLINK_WriteReg(R6, 0x00000000)  returns 0x00 (0000ms, 5306ms total)
T2B90 752:583 JLINK_WriteReg(R7, 0x00000000)  returns 0x00 (0000ms, 5306ms total)
T2B90 752:583 JLINK_WriteReg(R8, 0x00000000)  returns 0x00 (0000ms, 5306ms total)
T2B90 752:583 JLINK_WriteReg(R9, 0x20000160)  returns 0x00 (0000ms, 5306ms total)
T2B90 752:583 JLINK_WriteReg(R10, 0x00000000)  returns 0x00 (0000ms, 5306ms total)
T2B90 752:583 JLINK_WriteReg(R11, 0x00000000)  returns 0x00 (0000ms, 5306ms total)
T2B90 752:583 JLINK_WriteReg(R12, 0x00000000)  returns 0x00 (0000ms, 5306ms total)
T2B90 752:583 JLINK_WriteReg(R13 (SP), 0x20001000)  returns 0x00 (0000ms, 5306ms total)
T2B90 752:583 JLINK_WriteReg(R14, 0x20000001)  returns 0x00 (0000ms, 5306ms total)
T2B90 752:583 JLINK_WriteReg(R15 (PC), 0x200000F4)  returns 0x00 (0000ms, 5306ms total)
T2B90 752:583 JLINK_WriteReg(XPSR, 0x01000000)  returns 0x00 (0000ms, 5306ms total)
T2B90 752:583 JLINK_WriteReg(MSP, 0x20001000)  returns 0x00 (0000ms, 5306ms total)
T2B90 752:583 JLINK_WriteReg(PSP, 0x20001000)  returns 0x00 (0000ms, 5306ms total)
T2B90 752:583 JLINK_WriteReg(CFBP, 0x00000000)  returns 0x00 (0000ms, 5306ms total)
T2B90 752:583 JLINK_SetBPEx(Addr = 0x20000000, Type = 0xFFFFFFF2)  returns 0x0000000D (0000ms, 5306ms total)
T2B90 752:583 JLINK_Go() -- CPU_ReadMem(4 bytes @ 0xE0001000) (0005ms, 5311ms total)
T2B90 752:588 JLINK_IsHalted()  returns FALSE (0001ms, 5312ms total)
T2B90 752:591 JLINK_IsHalted()  returns FALSE (0001ms, 5312ms total)
T2B90 752:598 JLINK_IsHalted()  returns FALSE (0001ms, 5312ms total)
T2B90 752:601 JLINK_IsHalted()  returns FALSE (0001ms, 5312ms total)
T2B90 752:604 JLINK_IsHalted()  returns FALSE (0001ms, 5312ms total)
T2B90 752:607 JLINK_IsHalted()  returns FALSE (0001ms, 5312ms total)
T2B90 752:610 JLINK_IsHalted()  returns FALSE (0001ms, 5312ms total)
T2B90 752:612 JLINK_IsHalted()  returns FALSE (0001ms, 5312ms total)
T2B90 752:615 JLINK_IsHalted()  returns FALSE (0001ms, 5312ms total)
T2B90 752:618 JLINK_IsHalted() -- CPU_ReadMem(2 bytes @ 0x20000000)  returns TRUE (0004ms, 5315ms total)
T2B90 752:622 JLINK_ReadReg(R15 (PC))  returns 0x20000000 (0000ms, 5311ms total)
T2B90 752:622 JLINK_ClrBPEx(BPHandle = 0x0000000D)  returns 0x00 (0000ms, 5311ms total)
T2B90 752:622 JLINK_ReadReg(R0)  returns 0x00000000 (0000ms, 5311ms total)
T2B90 752:623 JLINK_WriteMem(0x20000164, 0x029C Bytes, ...) - Data: 00 24 05 8C 4E F6 FF 76 35 40 05 84 03 8C 84 88 ... -- CPU_WriteMem(668 bytes @ 0x20000164)  returns 0x29C (0006ms, 5317ms total)
T2B90 752:629 JLINK_WriteMem(0x20000400, 0x0164 Bytes, ...) - Data: 01 8C 4F F6 0C 76 32 40 7E 1C 06 EA 03 16 2E 43 ... -- CPU_WriteMem(356 bytes @ 0x20000400)  returns 0x164 (0003ms, 5320ms total)
T2B90 752:634 JLINK_WriteReg(R0, 0x08002400)  returns 0x00 (0000ms, 5320ms total)
T2B90 752:634 JLINK_WriteReg(R1, 0x00000400)  returns 0x00 (0000ms, 5320ms total)
T2B90 752:634 JLINK_WriteReg(R2, 0x20000164)  returns 0x00 (0000ms, 5320ms total)
T2B90 752:634 JLINK_WriteReg(R3, 0x00000000)  returns 0x00 (0000ms, 5320ms total)
T2B90 752:634 JLINK_WriteReg(R4, 0x00000000)  returns 0x00 (0000ms, 5320ms total)
T2B90 752:634 JLINK_WriteReg(R5, 0x00000000)  returns 0x00 (0000ms, 5320ms total)
